Tx1,Tx2,Tx3,w,S11_1,S11_2,S11_3,Freq_1,Freq_2,Freq_3,Absorption_1,Absorption_2,Absorption_3
12.0,7.5,3.0,16.0,-9.643274665532873e-16,-1.928654933106575e-15,-9.643274665532873e-16,2.752,2.776,2.836,2.220446049250313e-16,4.440892098500626e-16,2.220446049250313e-16
12.0,7.5,3.0,16.5,-9.643274665532873e-16,-9.643274665532873e-16,-9.643274665532873e-16,2.614,2.626,2.638,2.220446049250313e-16,2.220446049250313e-16,2.220446049250313e-16
12.0,7.5,3.0,17.0,-17.30700245455203,-6.039854370905181,-10.809015401697774,4.354,6.874,8.5,0.9814091282642994,0.7511059223112799,0.9169961073916301
12.0,7.5,3.0,17.5,-19.13322786792773,-5.801147565881659,-10.323161392126838,4.36,6.88,8.5,0.9877910809778706,0.7370426929910222,0.9071709596565408
12.0,7.5,3.0,18.0,-21.592152556548967,-5.478095457853794,-9.69070791512858,4.372,6.886,8.5,0.9930691780148349,0.7167366061649493,0.8926185637405585
12.0,7.5,3.0,18.5,-24.7783544106834,-5.238744435390417,-8.902825094641067,4.378,6.886,8.5,0.9966721437447741,0.7006870161352834,0.8712588184816468
12.0,7.5,3.5,16.0,-16.184744126623794,-11.22438702947424,-25.413449880373307,4.264,6.712,8.386,0.9759272565569191,0.9245670144282832,0.9971248863802765
12.0,7.5,3.5,16.5,-17.592210449312,-10.623953318431258,-22.015478080031343,4.282,6.7,8.379999999999999,0.9825907943677588,0.9133826947732204,0.9937128735963343
12.0,7.5,3.5,17.0,-19.793495394224724,-10.082848563826545,-19.55881659230307,4.288,6.706,8.386,0.9895130194970866,0.9018895780271491,0.9889307463136058
12.0,7.5,3.5,17.5,-22.30981664772346,-9.467616871459896,-17.735199352412284,4.3,6.718,8.398,0.9941248584407332,0.8869583955931729,0.9831546489952352
12.0,7.5,3.5,18.0,-26.526078747102645,-8.998423364882912,-16.034834961829013,4.312,6.724,8.398,0.9977746817722133,0.8740617472947193,0.9750818093782468
12.0,7.5,3.5,18.5,-29.29507308217529,-8.570287275988637,-14.637061954450424,4.312,6.724,8.398,0.9988237688088565,0.8610139307972343,0.9656209553081656
12.0,7.5,4.0,16.0,-17.950977627042242,-19.81543547282224,-20.07368518390594,4.192,6.502,8.206,0.9839711547036489,0.9895658649696923,0.9901682351773818
12.0,7.5,4.0,16.5,-19.89058419360795,-17.808342340717815,-18.65236440029295,4.21,6.502,8.224,0.9897448603060197,0.9834359792480833,0.9863615957205518
12.0,7.5,4.0,17.0,-22.813874417923536,-15.86986797331511,-17.176853621870627,4.228,6.526,8.236,0.9947686646833105,0.9741170840128556,0.9808435673170901
12.0,7.5,4.0,17.5,-27.552806031887137,-15.171050739115293,-15.747377119189244,4.234,6.514,8.23,0.9982432118359942,0.9695985060198715,0.9733766753490433
12.0,7.5,4.0,18.0,-0.0187341774356724,-31.41492474707368,-14.665039065570785,2.542,4.228,6.508,0.004304413113031091,0.9992780493274795,0.965841712192727
12.0,7.5,4.0,18.5,-31.21795692079056,-13.185783883419884,-13.337523574472945,4.246,6.526,8.23,0.9992445524659176,0.951980060157082,0.9536288739105858
12.0,7.5,4.5,16.0,-20.677300452646897,-29.836524041187328,-16.319465734950924,4.132,6.298,8.08,0.991444016177673,0.9989616408460991,0.9766625486021185
12.0,7.5,4.5,16.5,-0.0647991956623151,-23.781137330536147,-46.505888247402,2.77,4.144,6.304,0.014809806101221956,0.9958131609419566,0.9999776431210551
12.0,7.5,4.5,17.0,-28.984389215953254,-34.939562066648634,-13.741821864330024,4.156000000000001,6.304,8.097999999999999,0.9987365412180877,0.999679340734579,0.9577508657933238
12.0,7.5,4.5,17.5,-39.32737654011034,-28.25093030347628,-12.801237372095308,4.168,6.3100000000000005,8.097999999999999,0.9998832485330699,0.9985040848186562,0.947534204420701
12.0,7.5,4.5,18.0,-28.66761055178282,-23.056583966620924,-11.871760582529332,4.18,6.3100000000000005,8.097999999999999,0.9986409390162468,0.9950530034973007,0.9350133811738572
12.0,7.5,4.5,18.5,-0.014501392238678,-9.643274665532873e-16,-9.643274665532873e-16,2.986,3.064,3.076,0.0033335004684682534,2.220446049250313e-16,2.220446049250313e-16
12.0,7.5,5.0,16.0,-26.378904402273168,-19.204103592732515,-12.286207844487793,4.1080000000000005,6.088,7.996,0.997697977523016,0.987988710330633,0.9409283345304438
12.0,7.5,5.0,16.5,-29.50642818592436,-20.20345315799893,-11.340593110323791,4.114,6.082000000000001,7.984,0.9988796410666831,0.9904576644494122,0.9265586436596861
12.0,7.5,5.0,17.0,-30.83204920858561,-22.477739218861544,-10.74502394969898,4.1080000000000005,6.052,7.936,0.9991743517226009,0.9943476886272422,0.9157640253869983
12.0,7.5,5.0,17.5,-29.234975645698263,-25.75724392858447,-9.881074465923454,4.12,6.082000000000001,7.984,0.9988073790462008,0.9973437092670646,0.8972238006705971
12.0,7.5,5.0,18.0,-22.801381750604413,-31.187322987988694,-9.431480846798149,4.126,6.093999999999999,7.99,0.9947535948584569,0.9992392049098223,0.8860138945769264
12.0,7.5,5.0,18.5,-19.93698764247864,-34.4886017987502,-8.668056545789483,4.138,6.07,7.966,0.9898538510012449,0.9996442541683007,0.8641078576374062
12.0,7.5,5.5,16.0,-28.89414090344594,-15.002771288756325,-9.187341886358375,4.078,5.854,7.906,0.9987100112891352,0.9683973958605645,0.879422628766791
12.0,7.5,5.5,16.5,-23.402492349313544,-16.07938953886666,-8.59537985286173,4.09,5.866,7.912,0.9954317405102003,0.9753361400236811,0.8618146462311033
12.0,7.5,5.5,17.0,-9.643274665532873e-16,-9.643274665532873e-16,-9.643274665532873e-16,2.812,2.824,2.878,2.220446049250313e-16,2.220446049250313e-16,2.220446049250313e-16
12.0,7.5,5.5,17.5,-18.293692986427093,-19.115639823249506,-7.51683003578823,4.1080000000000005,5.878,7.918,0.9851874202574158,0.9877415370812157,0.8228598547623032
12.0,7.5,5.5,18.0,-17.099072814505462,-20.58595479584692,-7.000494992205968,4.096,5.854,7.894,0.9804973907889745,0.9912621513001637,0.8004965084423558
12.0,7.5,5.5,18.5,-15.1182946581923,-23.757161701014947,-6.658800986324316,4.12,5.896,7.93,0.9692269505879483,0.9957899831901638,0.7841659791837176
12.0,7.5,6.0,16.0,-1.3984310703078526,-7.821595373017768,-6.613959717132021,2.536,4.972,7.804,0.2753022833377937,0.8348644935537152,0.7819259303867132
12.0,7.5,6.0,16.5,-1.2729815790798198,-8.234879190942921,-6.058783547615949,2.53,4.978,7.786,0.25406352813653477,0.8498545828405535,0.7521883922940958
12.0,7.5,6.0,17.0,-1.174371801062585,-8.738793293570946,-5.779565888769861,2.542,5.008,7.798,0.23693274055287306,0.8663033052877409,0.7357327100098157
12.0,7.5,6.0,17.5,-1.1341405374514166,-9.23714988183294,-5.287019674475992,2.548,5.026,7.816,0.22983115541418608,0.8807975966194954,0.703995691458766
12.0,7.5,6.0,18.0,-1.0985057497410369,-9.825077318991914,-4.917575729534638,2.542,5.026,7.804,0.22348575885847777,0.8958900427607784,0.6777132677507143
12.0,7.5,6.0,18.5,-1.001267628842242,-10.417198911173156,-4.545231762357267,2.554,5.0440000000000005,7.822,0.2059035818164946,0.9091593759831351,0.6488628145091184
12.0,8.0,3.0,16.0,-16.272378100705463,-9.817800029395986,-22.23639744485436,4.192,6.706,8.308,0.976408139587684,0.8957154438500764,0.9940246925584838
12.0,8.0,3.0,16.5,-17.96869617625475,-9.381588880760926,-19.888382999045888,4.204,6.718,8.314,0.984036416715667,0.8846968659692849,0.9897396612348206
12.0,8.0,3.0,17.0,-19.58221203154049,-8.975344523186097,-18.09302636236881,4.21,6.7,8.29,0.9889902160462276,0.8733907174851168,0.9844869438740805
12.0,8.0,3.0,17.5,-21.522657706710003,-8.61490718582589,-16.6625999370469,4.21,6.7,8.278,0.992957380427861,0.862434579058418,0.9784354695441775
12.0,8.0,3.0,18.0,-25.54710073529981,-8.123928354036288,-15.065851925856633,4.228,6.712,8.302,0.9972120182506009,0.8459693441557747,0.9688531015141528
12.0,8.0,3.0,18.5,-9.643274665532873e-16,-9.643274665532873e-16,-9.643274665532873e-16,2.842,2.872,2.902,2.220446049250313e-16,2.220446049250313e-16,2.220446049250313e-16
12.0,8.0,3.5,16.0,-18.134343779154925,-17.085305219164674,-20.29387732377019,4.12,6.526,8.14,0.9846338304072028,0.9804354673508207,0.9906542907100275
12.0,8.0,3.5,16.5,-20.266729593188654,-16.281755877512808,-18.04579652862609,4.126,6.526,8.14,0.9905956877462567,0.9764590268358826,0.9843173176084602
12.0,8.0,3.5,17.0,-22.9242026888181,-14.752888007060944,-16.59835331630939,4.15,6.5440000000000005,8.146,0.9948998877924049,0.9665257234860851,0.978114087006577
12.0,8.0,3.5,17.5,-27.186352255548808,-14.046512222705235,-15.255509892137049,4.138,6.526,8.134,0.9980885419356008,0.9606133741311579,0.9701840253304886
12.0,8.0,3.5,18.0,-31.084045252472023,-13.188920822476444,-13.89612923342508,4.15,6.538,8.134,0.9992208959270119,0.9520147327678521,0.9592256471693553
12.0,8.0,3.5,18.5,-36.68250429372912,-12.250118290932503,-12.945745075034882,4.168,6.55,8.152000000000001,0.9997853407682952,0.9404354080593966,0.9492512332956499
12.0,8.0,4.0,16.0,-22.521662677702945,-33.06349198943286,-17.34510790357117,4.084,6.4,8.056000000000001,0.9944045665827286,0.9995060866088569,0.9815715329844301
12.0,8.0,4.0,16.5,-25.70656019027861,-28.149718263336915,-15.924766701796331,4.096,6.394,8.05,0.9973125277969391,0.998468813209986,0.9744422080898534
12.0,8.0,4.0,17.0,-31.075455568934103,-24.401261258478,-14.483595264323476,4.102,6.394,8.05,0.9992193534529056,0.9963702737341389,0.9643843829044905
12.0,8.0,4.0,17.5,-41.176159790663576,-22.611206560916955,-13.692855439244918,4.102,6.394,8.032,0.9999237246830547,0.9945187533673165,0.9572718139425745
12.0,8.0,4.0,18.0,-27.443876193246567,-20.75394973150264,-12.297443305342671,4.102,6.388,8.032,0.9981985907822842,0.9915936972512088,0.9410809589914639
12.0,8.0,4.0,18.5,-25.730751844145114,-19.98350271739162,-11.484670078904422,4.1080000000000005,6.3580000000000005,7.99,0.9973274562981762,0.9899619413632311,0.9289550861258056
12.0,8.0,4.5,16.0,-26.996469759026343,-21.693319432532785,-14.25737268284688,4.024,6.226,7.948,0.9980031151407278,0.9932287623459997,0.9624800084657965
12.0,8.0,4.5,16.5,-52.24069202759515,-24.243097821299827,-12.92879383364346,4.042,6.232,7.954,0.9999940305984057,0.9962356480791839,0.9490527652800567
12.0,8.0,4.5,17.0,-31.89767061075516,-26.73362258909617,-11.982691250852984,4.048,6.220000000000001,7.948,0.9993539993738798,0.9978785258656292,0.9366522965606726
12.0,8.0,4.5,17.5,-24.86891361026716,-31.52946619534749,-11.261505952550388,4.0600000000000005,6.244,7.96,0.9967408178059519,0.9992968412580323,0.9252089888564519
12.0,8.0,4.5,18.0,-20.94233896840794,-38.025528289732,-10.573003687755978,4.066,6.244,7.96,0.9919505519257605,0.9998424395650478,0.9123605524549586
12.0,8.0,4.5,18.5,-19.07337955720025,-29.4284250577522,-9.908638649975854,4.066,6.244,7.96,0.9876216703506274,0.9988593366328746,0.8978740439960406
12.0,8.0,5.0,16.0,-38.56894498634363,-16.078448375208524,-11.213517559128764,3.976,6.0280000000000005,7.852,0.9998609709672316,0.9753307945161845,0.9243779852029069
12.0,8.0,5.0,16.5,-25.020360210886988,-17.427923840868058,-10.409380008637868,3.988,6.04,7.864,0.9968525127544222,0.9819196174188805,0.9089956820435365
12.0,8.0,5.0,17.0,-22.27827679597536,-18.92348597296043,-9.664961196873856,4.0,6.046,7.87,0.9940820359801273,0.9871869829898006,0.8919800727850797
12.0,8.0,5.0,17.5,-19.305764834967444,-20.851841549467288,-9.140581823347716,4.006,6.046,7.87,0.9882666097215909,0.9917810593369545,0.8781173697900863
12.0,8.0,5.0,18.0,-17.497856052475466,-23.613906343797755,-8.529074319309867,4.0120000000000005,6.058,7.87,0.9822084250398355,0.9956487967957887,0.8596887259642471
12.0,8.0,5.0,18.5,-16.00037187840775,-26.677603578747192,-8.089509412738225,4.0120000000000005,6.058,7.864,0.9748832864751475,0.9978509840337325,0.8447437619563909
12.0,8.0,5.5,16.0,-26.297353859364435,-12.673264021562424,-8.200779503745334,3.88,5.752000000000001,7.708,0.9976543424192799,0.9459651938413386,0.8486710392313432
12.0,8.0,5.5,16.5,-23.389965231241057,-13.744858164071523,-7.712269582100078,3.868,5.746,7.702,0.9954185444547727,0.9577803932702444,0.8306547413223011
12.0,8.0,5.5,17.0,-18.53974228118848,-14.21073190557026,-7.366210665156101,3.904,5.764,7.708,0.9860032962072302,0.9620748934640713,0.816608613689383
12.0,8.0,5.5,17.5,-15.728913693732531,-16.80247033124704,-7.071221062244888,3.958,5.8420000000000005,7.78,0.9732632490524475,0.9791189195375467,0.8037191663889488
12.0,8.0,5.5,18.0,-14.449710376095272,-18.219853287478628,-6.6590059795824175,3.964,5.848,7.78,0.9641054128638592,0.9849334203704524,0.7841761666203058
12.0,8.0,5.5,18.5,-13.212250856908284,-20.10528447077791,-6.197558369706687,3.964,5.854,7.786,0.9522718155591661,0.9902395115263694,0.759981806317926
12.0,8.0,6.0,16.0,-16.239088706622503,-11.87412064967777,-6.203710791210032,3.874,5.566000000000001,7.672,0.976226609213877,0.9350486869686054,0.7603215867375546
12.0,8.0,6.0,16.5,-0.0609267590334926,-14.64794494878845,-12.642681494439458,3.25,3.892,5.584,0.013930958190232379,0.9657069979745657,0.9455833439425739
12.0,8.0,6.0,17.0,-13.226055142503562,-13.390297240716908,-5.457411020494187,3.892,5.59,7.684,0.9524232813327707,0.9541889468453091,0.7153842705449118
12.0,8.0,6.0,17.5,-12.305240433403249,-14.44515277640776,-5.159565595464025,3.904,5.602,7.69,0.9411866446912184,0.9640677243747263,0.6951800128388985
12.0,8.0,6.0,18.0,-11.317755519570849,-15.506566488240251,-4.861301994616221,3.91,5.602,7.69,0.9261714314494459,0.9718587521501381,0.6735100626627286
12.0,8.0,6.0,18.5,-10.466760109856374,-16.858497322902387,-4.577262573995148,3.91,5.614,7.69,0.9101901462815756,0.9793865697678675,0.6514430532980282
12.0,8.5,3.0,16.0,-19.176228826802834,-14.352173735830211,-18.32218675004652,4.066,6.5680000000000005,8.068000000000001,0.9879113691063708,0.9632901486070998,0.9852842864652163
12.0,8.5,3.0,16.5,-21.675560305942675,-13.430936097798376,-16.72211110783123,4.084,6.5680000000000005,8.074,0.9932010167788091,0.9546156217416972,0.9787289519216916
12.0,8.5,3.0,17.0,-24.57309551564028,-12.72676954437054,-15.49731422024643,4.09,6.574,8.074,0.9965110845218355,0.9466268241155233,0.9717987357504433
12.0,8.5,3.0,17.5,-28.134401839875736,-12.045208694258411,-14.176387549487636,4.096,6.574,8.074,0.9984634035835767,0.9375576656248054,0.9617737896714041
12.0,8.5,3.0,18.0,-44.00921992332747,-11.396471689890708,-13.08869934434427,4.102,6.556,8.062000000000001,0.9999602737100858,0.9274975252040177,0.9508945081286815
12.0,8.5,3.0,18.5,-29.66396395438405,-10.776899069535864,-12.37243663028493,4.1080000000000005,6.562,8.056000000000001,0.9989195526601585,0.9163800135102942,0.9420896303677636
12.0,8.5,3.5,16.0,-22.939093571362715,-26.095711959689154,-16.4054607416159,4.0120000000000005,6.412,7.954,0.994917344869363,0.997542866211483,0.9771201103331306
12.0,8.5,3.5,16.5,-27.7120349863387,-22.76481123087597,-15.149956580002756,4.024,6.412,7.954,0.9983064559343888,0.9947092300658985,0.9694504834406867
12.0,8.5,3.5,17.0,-35.571854154954856,-20.58546493688048,-13.866278672957886,4.036,6.424,7.954,0.999722786366993,0.9912611656659644,0.9589444255931786
12.0,8.5,3.5,17.5,-37.558621168778,-20.00980737155095,-12.842939668813012,4.03,6.406000000000001,7.942,0.9998245562574405,0.9900225568286867,0.9480355861214305
12.0,8.5,3.5,18.0,-26.615947428452564,-17.20692877317542,-11.80504516684566,4.054,6.43,7.966,0.9978202571731323,0.9809757684745839,0.9340073629039743
12.0,8.5,3.5,18.5,-24.32611212731828,-17.136459709396725,-11.25657017462718,4.042,6.382,7.918,0.9963069193897003,0.9806645613502344,0.9251239401883338
12.0,8.5,4.0,16.0,-27.644739279255013,-24.38261028811269,-13.9750875587937,3.952,6.256,7.858,0.9982800094053732,0.9963546521929898,0.9599602604225713
12.0,8.5,4.0,16.5,-33.6777098569684,-27.65624666846502,-12.88226959884409,3.97,6.2620000000000005,7.864,0.999571225435694,0.9982845607877198,0.948504054070311
12.0,8.5,4.0,17.0,-27.576010887256253,-33.74247653561791,-12.06151636112364,3.976,6.268000000000001,7.864,0.9982525735253326,0.9995775723410137,0.9377916956191533
12.0,8.5,4.0,17.5,-24.27660229076246,-36.335937787551565,-11.224032468606277,3.988,6.274,7.87,0.9962645771513875,0.9997675089594522,0.9245608557783934
12.0,8.5,4.0,18.0,-9.643274665532873e-16,-9.643274665532873e-16,-9.643274665532873e-16,2.728,2.746,2.764,2.220446049250313e-16,2.220446049250313e-16,2.220446049250313e-16
12.0,8.5,4.0,18.5,-18.8260623662451,-27.50567991391597,-9.908432087943584,3.982,6.256,7.846,0.9868963053793669,0.998224044789858,0.8978691864978264
12.0,8.5,4.5,16.0,-35.68528782525975,-16.14501627607003,-11.684893466024231,3.892,6.064,7.756,0.9997299331882267,0.9757060366265409,0.9321561237362539
12.0,8.5,4.5,16.5,-25.4948944010864,-17.822565724186216,-11.085765785562211,3.904,6.0760000000000005,7.756,0.9971783018080151,0.9834901385924759,0.922120452150323
12.0,8.5,4.5,17.0,-21.810258959971527,-20.32722911719106,-10.193600837207171,3.916,6.106,7.78,0.9934086540863154,0.9907257865258196,0.904359923179671
12.0,8.5,4.5,17.5,-20.676144258875432,-21.192719646827065,-9.750960514514231,3.916,6.0760000000000005,7.75,0.9914417380708758,0.9924014970691667,0.8940980520505615
12.0,8.5,4.5,18.0,-18.40734618613845,-22.787980910863823,-9.027896551456996,3.916,6.058,7.732,0.9855700315552293,0.9947373812477436,0.8749135276499034
12.0,8.5,4.5,18.5,-9.643274665532873e-16,-9.643274665532873e-16,-9.643274665532873e-16,2.806,2.83,2.848,2.220446049250313e-16,2.220446049250313e-16,2.220446049250313e-16
12.0,8.5,5.0,16.0,-22.964442412376627,-13.967603048916269,-9.673089738543164,3.856,5.926,7.702,0.9949469248314854,0.9598911975595923,0.8921820609119147
12.0,8.5,5.0,16.5,-20.204444597328024,-14.954040523242451,-9.02554931932379,3.862,5.932,7.702,0.9904598425952003,0.968040796458864,0.8748459038700092
12.0,8.5,5.0,17.0,-17.8273813170062,-16.088350021313843,-8.430752238716934,3.874,5.944,7.714,0.9835084350965684,0.9753869747138751,0.8564759185328255
12.0,8.5,5.0,17.5,-16.177441239293845,-17.488681539073404,-7.997055106818252,3.88,5.95,7.708,0.9758867429349026,0.9821708004365605,0.8414031748071272
12.0,8.5,5.0,18.0,-14.861112464743272,-19.16792651314713,-7.419312488451114,3.886,5.956,7.714,0.967349581404821,0.9878882374290968,0.8188373139792978
12.0,8.5,5.0,18.5,-13.587019809020047,-21.377653449497046,-7.038354376074327,3.898,5.962,7.714,0.9562177557866433,0.9927182686016038,0.802228110675894
12.0,8.5,5.5,16.0,-18.22704152276197,-12.162912103912433,-7.485355367851789,3.802,5.74,7.624,0.9849583372287081,0.9392272638877605,0.8215714019259701
12.0,8.5,5.5,16.5,-18.142519376194645,-12.527109944667616,-6.988479249295942,3.766,5.692,7.6,0.9846627300232448,0.9441158042097845,0.7999437724533596
12.0,8.5,5.5,17.0,-15.726488198612934,-13.20192992863661,-6.800541468570178,3.778,5.71,7.552,0.9732483126500663,0.9521582555258087,0.7910964341639968
12.0,8.5,5.5,17.5,-14.473634641093756,-14.040337352904578,-6.298448385565582,3.796,5.722,7.576,0.9643026040917109,0.9605573337537676,0.7654933506731837
12.0,8.5,5.5,18.0,-13.43354095687193,-15.239899658439606,-5.770826590546231,3.796,5.728,7.576,0.954642834719964,0.9700766622782048,0.7352003901150566
12.0,8.5,5.5,18.5,-12.19047283291191,-16.191341970365713,-5.520786147408195,3.808,5.734,7.576,0.9396117121227453,0.975963800335552,0.7195074147634346
12.0,8.5,6.0,16.0,-14.443595450425844,-11.11303311536208,-5.633505903510629,3.748,5.542,7.54,0.9640548371972647,0.9226078897965524,0.726693846697011
12.0,8.5,6.0,16.5,-12.999807155301893,-11.82689394603888,-5.33339725793578,3.754,5.554,7.546,0.9498790511094183,0.9343385293799894,0.7071398542314755
12.0,8.5,6.0,17.0,-12.02817575619198,-12.606273148115593,-5.005279689813891,3.766,5.566000000000001,7.546,0.9373122872352562,0.9451252335101556,0.6841564364412256
12.0,8.5,6.0,17.5,-11.05272786973218,-13.443795620524604,-4.704574787283764,3.772,5.572,7.558,0.9215257428975235,0.95474980678533,0.6615125888441609
12.0,8.5,6.0,18.0,-10.23053177335242,-14.47564613991439,-4.428457031447065,3.778,5.577999999999999,7.558,0.9051697659010285,0.9643191340377484,0.6392932272473918
12.0,8.5,6.0,18.5,-9.607783761031635,-15.703442689532302,-4.252170057049748,3.778,5.577999999999999,7.552,0.8905485236707529,0.9731059795331172,0.6243503450181653
12.0,9.0,3.0,16.0,-23.013302736757705,-21.428644077004005,-14.559385026937823,3.94,6.418,7.84,0.9950034558835048,0.9928032636574237,0.9650005276254348
12.0,9.0,3.0,16.5,-29.238380088192528,-19.32468691937743,-13.52136854282919,3.958,6.424,7.852,0.9988083135776389,0.9883176205551126,0.9555508822053966
