Tx1,Tx2,Tx3,w,S11_1,S11_2,S11_3,Freq_1,Freq_2,Freq_3
12.0,7.5,3.0,16.0,-9.643274665532873e-16,-1.9286549331065747e-15,-9.643274665532873e-16,2.752,2.776,2.836
12.0,7.5,3.0,16.5,-9.643274665532873e-16,-9.643274665532873e-16,-9.643274665532873e-16,2.614,2.626,2.638
12.0,7.5,3.0,17.0,-17.30700245455203,-6.039854370905181,-10.809015401697774,4.354,6.874,8.5
12.0,7.5,3.0,17.5,-19.13322786792773,-5.801147565881659,-10.323161392126838,4.36,6.88,8.5
12.0,7.5,3.0,18.0,-21.592152556548967,-5.478095457853794,-9.69070791512858,4.372,6.886,8.5
12.0,7.5,3.0,18.5,-24.7783544106834,-5.238744435390417,-8.902825094641067,4.378,6.886,8.5
12.0,7.5,3.5,16.0,-16.184744126623794,-11.22438702947424,-25.413449880373307,4.264,6.712,8.386
12.0,7.5,3.5,16.5,-17.592210449312,-10.623953318431258,-22.015478080031343,4.282,6.7,8.379999999999999
12.0,7.5,3.5,17.0,-19.793495394224724,-10.082848563826545,-19.55881659230307,4.288,6.706,8.386
12.0,7.5,3.5,17.5,-22.30981664772346,-9.467616871459896,-17.735199352412284,4.3,6.718,8.398
12.0,7.5,3.5,18.0,-26.526078747102645,-8.998423364882912,-16.034834961829013,4.312,6.724,8.398
12.0,7.5,3.5,18.5,-29.29507308217529,-8.570287275988637,-14.637061954450424,4.312,6.724,8.398
12.0,7.5,4.0,16.0,-17.950977627042242,-19.81543547282224,-20.07368518390594,4.192,6.502,8.206
12.0,7.5,4.0,16.5,-19.89058419360795,-17.808342340717815,-18.65236440029295,4.21,6.502,8.224
12.0,7.5,4.0,17.0,-22.813874417923536,-15.86986797331511,-17.176853621870627,4.228,6.526,8.236
12.0,7.5,4.0,17.5,-27.552806031887137,-15.171050739115293,-15.747377119189244,4.234,6.514,8.23
12.0,7.5,4.0,18.0,-0.0187341774356724,-31.41492474707368,-14.665039065570785,2.542,4.228,6.508
12.0,7.5,4.0,18.5,-31.21795692079056,-13.185783883419884,-13.337523574472945,4.246,6.526,8.23
12.0,7.5,4.5,16.0,-20.677300452646897,-29.836524041187328,-16.319465734950924,4.132,6.298,8.08
12.0,7.5,4.5,16.5,-0.0647991956623151,-23.781137330536147,-46.505888247402,2.77,4.144,6.304
12.0,7.5,4.5,17.0,-28.984389215953254,-34.939562066648634,-13.741821864330024,4.156000000000001,6.304,8.097999999999999
12.0,7.5,4.5,17.5,-39.32737654011034,-28.25093030347628,-12.801237372095308,4.168,6.3100000000000005,8.097999999999999
12.0,7.5,4.5,18.0,-28.66761055178282,-23.056583966620924,-11.871760582529332,4.18,6.3100000000000005,8.097999999999999
12.0,7.5,4.5,18.5,-0.014501392238678,-9.643274665532873e-16,-9.643274665532873e-16,2.986,3.064,3.076
12.0,7.5,5.0,16.0,-26.378904402273168,-19.204103592732515,-12.286207844487793,4.1080000000000005,6.088,7.996
12.0,7.5,5.0,16.5,-29.50642818592436,-20.20345315799893,-11.340593110323791,4.114,6.082000000000001,7.984
12.0,7.5,5.0,17.0,-30.83204920858561,-22.477739218861544,-10.74502394969898,4.1080000000000005,6.052,7.936
12.0,7.5,5.0,17.5,-29.234975645698263,-25.75724392858447,-9.881074465923454,4.12,6.082000000000001,7.984
12.0,7.5,5.0,18.0,-22.801381750604413,-31.187322987988694,-9.431480846798149,4.126,6.093999999999999,7.99
12.0,7.5,5.0,18.5,-19.936987642478638,-34.4886017987502,-8.668056545789483,4.138,6.07,7.966
12.0,7.5,5.5,16.0,-28.89414090344594,-15.002771288756325,-9.187341886358375,4.078,5.854,7.906
12.0,7.5,5.5,16.5,-23.402492349313544,-16.07938953886666,-8.59537985286173,4.09,5.866,7.912
12.0,7.5,5.5,17.0,-9.643274665532873e-16,-9.643274665532873e-16,-9.643274665532873e-16,2.812,2.824,2.878
12.0,7.5,5.5,17.5,-18.293692986427093,-19.115639823249506,-7.51683003578823,4.1080000000000005,5.878,7.918
12.0,7.5,5.5,18.0,-17.099072814505462,-20.58595479584692,-7.000494992205968,4.096,5.854,7.894
12.0,7.5,5.5,18.5,-15.1182946581923,-23.757161701014947,-6.658800986324316,4.12,5.896,7.93
12.0,7.5,6.0,16.0,-1.3984310703078526,-7.821595373017768,-6.613959717132021,2.536,4.972,7.804
12.0,7.5,6.0,16.5,-1.2729815790798198,-8.234879190942921,-6.058783547615949,2.53,4.978,7.786
12.0,7.5,6.0,17.0,-1.174371801062585,-8.738793293570946,-5.779565888769861,2.542,5.008,7.798
12.0,7.5,6.0,17.5,-1.1341405374514166,-9.23714988183294,-5.287019674475992,2.548,5.026,7.816
12.0,7.5,6.0,18.0,-1.0985057497410369,-9.825077318991914,-4.917575729534638,2.542,5.026,7.804
12.0,7.5,6.0,18.5,-1.001267628842242,-10.417198911173156,-4.545231762357267,2.554,5.0440000000000005,7.822
12.0,8.0,3.0,16.0,-16.272378100705463,-9.817800029395986,-22.23639744485436,4.192,6.706,8.308
12.0,8.0,3.0,16.5,-17.96869617625475,-9.381588880760926,-19.888382999045888,4.204,6.718,8.314
12.0,8.0,3.0,17.0,-19.58221203154049,-8.975344523186097,-18.09302636236881,4.21,6.7,8.29
12.0,8.0,3.0,17.5,-21.522657706710003,-8.61490718582589,-16.6625999370469,4.21,6.7,8.278
12.0,8.0,3.0,18.0,-25.547100735299814,-8.123928354036288,-15.065851925856633,4.228,6.712,8.302
12.0,8.0,3.0,18.5,-9.643274665532873e-16,-9.643274665532873e-16,-9.643274665532873e-16,2.842,2.872,2.902
12.0,8.0,3.5,16.0,-18.134343779154925,-17.085305219164674,-20.29387732377019,4.12,6.526,8.14
12.0,8.0,3.5,16.5,-20.266729593188654,-16.281755877512808,-18.04579652862609,4.126,6.526,8.14
12.0,8.0,3.5,17.0,-22.9242026888181,-14.752888007060944,-16.59835331630939,4.15,6.5440000000000005,8.146
12.0,8.0,3.5,17.5,-27.186352255548808,-14.046512222705235,-15.255509892137049,4.138,6.526,8.134
12.0,8.0,3.5,18.0,-31.084045252472023,-13.188920822476444,-13.89612923342508,4.15,6.538,8.134
12.0,8.0,3.5,18.5,-36.68250429372912,-12.250118290932503,-12.945745075034882,4.168,6.55,8.152000000000001
12.0,8.0,4.0,16.0,-22.521662677702945,-33.06349198943286,-17.34510790357117,4.084,6.4,8.056000000000001
12.0,8.0,4.0,16.5,-25.70656019027861,-28.149718263336915,-15.924766701796331,4.096,6.394,8.05
12.0,8.0,4.0,17.0,-31.075455568934103,-24.401261258478,-14.483595264323476,4.102,6.394,8.05
12.0,8.0,4.0,17.5,-41.176159790663576,-22.611206560916955,-13.692855439244918,4.102,6.394,8.032
12.0,8.0,4.0,18.0,-27.443876193246567,-20.75394973150264,-12.297443305342671,4.102,6.388,8.032
12.0,8.0,4.0,18.5,-25.730751844145114,-19.98350271739162,-11.484670078904422,4.1080000000000005,6.3580000000000005,7.99
12.0,8.0,4.5,16.0,-26.996469759026343,-21.693319432532785,-14.25737268284688,4.024,6.226,7.948
12.0,8.0,4.5,16.5,-52.24069202759515,-24.243097821299827,-12.92879383364346,4.042,6.232,7.954
12.0,8.0,4.5,17.0,-31.89767061075516,-26.73362258909617,-11.982691250852984,4.048,6.220000000000001,7.948
12.0,8.0,4.5,17.5,-24.86891361026716,-31.52946619534749,-11.261505952550388,4.0600000000000005,6.244,7.96
12.0,8.0,4.5,18.0,-20.94233896840794,-38.025528289732,-10.573003687755978,4.066,6.244,7.96
12.0,8.0,4.5,18.5,-19.07337955720025,-29.4284250577522,-9.908638649975854,4.066,6.244,7.96
12.0,8.0,5.0,16.0,-38.56894498634363,-16.078448375208524,-11.213517559128764,3.976,6.0280000000000005,7.852
12.0,8.0,5.0,16.5,-25.020360210886988,-17.427923840868058,-10.409380008637868,3.988,6.04,7.864
12.0,8.0,5.0,17.0,-22.27827679597536,-18.92348597296043,-9.664961196873856,4.0,6.046,7.87
12.0,8.0,5.0,17.5,-19.305764834967444,-20.851841549467288,-9.140581823347716,4.006,6.046,7.87
12.0,8.0,5.0,18.0,-17.497856052475466,-23.613906343797755,-8.529074319309867,4.0120000000000005,6.058,7.87
12.0,8.0,5.0,18.5,-16.00037187840775,-26.677603578747192,-8.089509412738225,4.0120000000000005,6.058,7.864
12.0,8.0,5.5,16.0,-26.297353859364435,-12.673264021562424,-8.200779503745334,3.88,5.752000000000001,7.708
12.0,8.0,5.5,16.5,-23.389965231241057,-13.744858164071523,-7.712269582100078,3.868,5.746,7.702
12.0,8.0,5.5,17.0,-18.539742281188477,-14.21073190557026,-7.366210665156101,3.904,5.764,7.708
12.0,8.0,5.5,17.5,-15.728913693732531,-16.80247033124704,-7.071221062244888,3.958,5.8420000000000005,7.78
12.0,8.0,5.5,18.0,-14.449710376095272,-18.219853287478628,-6.6590059795824175,3.964,5.848,7.78
12.0,8.0,5.5,18.5,-13.212250856908284,-20.10528447077791,-6.197558369706687,3.964,5.854,7.786
12.0,8.0,6.0,16.0,-16.239088706622503,-11.87412064967777,-6.203710791210032,3.874,5.566000000000001,7.672
12.0,8.0,6.0,16.5,-0.0609267590334926,-14.64794494878845,-12.642681494439458,3.25,3.892,5.584
12.0,8.0,6.0,17.0,-13.226055142503562,-13.390297240716908,-5.457411020494187,3.892,5.59,7.684
12.0,8.0,6.0,17.5,-12.305240433403249,-14.44515277640776,-5.159565595464025,3.904,5.602,7.69
12.0,8.0,6.0,18.0,-11.317755519570849,-15.506566488240251,-4.861301994616221,3.91,5.602,7.69
12.0,8.0,6.0,18.5,-10.466760109856374,-16.858497322902387,-4.577262573995148,3.91,5.614,7.69
12.0,8.5,3.0,16.0,-19.176228826802834,-14.352173735830211,-18.32218675004652,4.066,6.5680000000000005,8.068000000000001
12.0,8.5,3.0,16.5,-21.675560305942675,-13.430936097798376,-16.72211110783123,4.084,6.5680000000000005,8.074
12.0,8.5,3.0,17.0,-24.57309551564028,-12.72676954437054,-15.49731422024643,4.09,6.574,8.074
12.0,8.5,3.0,17.5,-28.134401839875736,-12.045208694258411,-14.176387549487636,4.096,6.574,8.074
12.0,8.5,3.0,18.0,-44.00921992332747,-11.396471689890708,-13.08869934434427,4.102,6.556,8.062000000000001
12.0,8.5,3.0,18.5,-29.66396395438405,-10.776899069535864,-12.37243663028493,4.1080000000000005,6.562,8.056000000000001
12.0,8.5,3.5,16.0,-22.939093571362715,-26.095711959689154,-16.4054607416159,4.0120000000000005,6.412,7.954
12.0,8.5,3.5,16.5,-27.7120349863387,-22.76481123087597,-15.149956580002756,4.024,6.412,7.954
12.0,8.5,3.5,17.0,-35.571854154954856,-20.58546493688048,-13.866278672957886,4.036,6.424,7.954
12.0,8.5,3.5,17.5,-37.558621168778,-20.00980737155095,-12.842939668813012,4.03,6.406000000000001,7.942
12.0,8.5,3.5,18.0,-26.615947428452564,-17.20692877317542,-11.80504516684566,4.054,6.43,7.966
12.0,8.5,3.5,18.5,-24.32611212731828,-17.136459709396725,-11.25657017462718,4.042,6.382,7.918
12.0,8.5,4.0,16.0,-27.644739279255013,-24.38261028811269,-13.9750875587937,3.952,6.256,7.858
12.0,8.5,4.0,16.5,-33.6777098569684,-27.65624666846502,-12.88226959884409,3.97,6.2620000000000005,7.864
12.0,8.5,4.0,17.0,-27.576010887256253,-33.74247653561791,-12.06151636112364,3.976,6.268000000000001,7.864
12.0,8.5,4.0,17.5,-24.27660229076246,-36.335937787551565,-11.224032468606277,3.988,6.274,7.87
12.0,8.5,4.0,18.0,-9.643274665532873e-16,-9.643274665532873e-16,-9.643274665532873e-16,2.728,2.746,2.764
12.0,8.5,4.0,18.5,-18.8260623662451,-27.50567991391597,-9.908432087943584,3.982,6.256,7.846
12.0,8.5,4.5,16.0,-35.68528782525975,-16.14501627607003,-11.684893466024231,3.892,6.064,7.756
12.0,8.5,4.5,16.5,-25.4948944010864,-17.822565724186216,-11.085765785562211,3.904,6.0760000000000005,7.756
12.0,8.5,4.5,17.0,-21.810258959971527,-20.32722911719106,-10.193600837207171,3.916,6.106,7.78
12.0,8.5,4.5,17.5,-20.676144258875432,-21.192719646827065,-9.750960514514231,3.916,6.0760000000000005,7.75
12.0,8.5,4.5,18.0,-18.407346186138454,-22.787980910863823,-9.027896551456996,3.916,6.058,7.732
12.0,8.5,4.5,18.5,-9.643274665532873e-16,-9.643274665532873e-16,-9.643274665532873e-16,2.806,2.83,2.848
12.0,8.5,5.0,16.0,-22.964442412376627,-13.967603048916269,-9.673089738543164,3.856,5.926,7.702
12.0,8.5,5.0,16.5,-20.204444597328024,-14.954040523242451,-9.02554931932379,3.862,5.932,7.702
12.0,8.5,5.0,17.0,-17.8273813170062,-16.088350021313843,-8.430752238716934,3.874,5.944,7.714
12.0,8.5,5.0,17.5,-16.177441239293845,-17.488681539073404,-7.997055106818252,3.88,5.95,7.708
12.0,8.5,5.0,18.0,-14.861112464743272,-19.16792651314713,-7.419312488451114,3.886,5.956,7.714
12.0,8.5,5.0,18.5,-13.587019809020047,-21.377653449497046,-7.038354376074327,3.898,5.962,7.714
12.0,8.5,5.5,16.0,-18.22704152276197,-12.162912103912433,-7.485355367851789,3.802,5.74,7.624
12.0,8.5,5.5,16.5,-18.142519376194645,-12.527109944667616,-6.988479249295942,3.766,5.692,7.6
12.0,8.5,5.5,17.0,-15.726488198612934,-13.20192992863661,-6.800541468570178,3.778,5.71,7.552
12.0,8.5,5.5,17.5,-14.473634641093756,-14.040337352904578,-6.298448385565582,3.796,5.722,7.576
12.0,8.5,5.5,18.0,-13.43354095687193,-15.239899658439606,-5.770826590546231,3.796,5.728,7.576
12.0,8.5,5.5,18.5,-12.19047283291191,-16.191341970365713,-5.520786147408195,3.808,5.734,7.576
12.0,8.5,6.0,16.0,-14.443595450425844,-11.11303311536208,-5.633505903510629,3.748,5.542,7.54
12.0,8.5,6.0,16.5,-12.999807155301893,-11.82689394603888,-5.33339725793578,3.754,5.554,7.546
12.0,8.5,6.0,17.0,-12.02817575619198,-12.606273148115593,-5.005279689813891,3.766,5.566000000000001,7.546
12.0,8.5,6.0,17.5,-11.05272786973218,-13.443795620524604,-4.704574787283764,3.772,5.572,7.558
12.0,8.5,6.0,18.0,-10.23053177335242,-14.47564613991439,-4.428457031447065,3.778,5.577999999999999,7.558
12.0,8.5,6.0,18.5,-9.607783761031635,-15.703442689532302,-4.252170057049748,3.778,5.577999999999999,7.552
12.0,9.0,3.0,16.0,-23.013302736757705,-21.428644077004005,-14.559385026937823,3.94,6.418,7.84
12.0,9.0,3.0,16.5,-29.238380088192528,-19.32468691937743,-13.52136854282919,3.958,6.424,7.852
12.0,9.0,3.0,17.0,-36.41710156344863,-17.668687411935867,-12.62255652737299,3.97,6.43,7.852
12.0,9.0,3.0,17.5,-32.52942260437949,-16.161476489635888,-11.806342906682628,3.976,6.43,7.858
12.0,9.0,3.0,18.0,-24.36675133852192,-15.04034128934432,-10.988787582595192,3.988,6.442,7.858
12.0,9.0,3.0,18.5,-21.54064930805636,-13.965551370630712,-10.311312736297609,3.994,6.442,7.858
12.0,9.0,3.5,16.0,-25.91092237472667,-23.37583201699175,-12.386606977582552,3.856,6.214,7.684
12.0,9.0,3.5,16.5,-35.24250227045012,-26.312350041268257,-11.894464585327704,3.868,6.184,7.684
12.0,9.0,3.5,17.0,-30.56794033772709,-30.257654460442808,-10.692471919129169,3.886,6.238,7.702
12.0,9.0,3.5,17.5,-26.204048322206354,-37.754638862343135,-10.19586770211755,3.892,6.214,7.696
12.0,9.0,3.5,18.0,-21.812473006410155,-34.0454298529771,-9.682840044094188,3.892,6.178,7.684
12.0,9.0,3.5,18.5,-19.97637860766899,-0.2913365691960628,-25.598312051232696,3.898,4.246,6.184
12.0,9.0,4.0,16.0,-34.512746613981456,-16.478330248739947,-10.954760662960473,3.82,6.082000000000001,7.636
12.0,9.0,4.0,16.5,-25.964001565628227,-17.755816287998925,-10.313713932080589,3.826,6.082000000000001,7.636
12.0,9.0,4.0,17.0,-23.52752442206675,-19.47512006070371,-9.607139930604836,3.826,6.088,7.624
12.0,9.0,4.0,17.5,-19.859833232360504,-21.46953940131203,-9.055906594957454,3.832,6.0760000000000005,7.624
12.0,9.0,4.0,18.0,-18.32514470310501,-25.08562628174879,-8.596890963007565,3.832,6.058,7.624
12.0,9.0,4.0,18.5,-16.288762080279607,-29.420550646656118,-8.444375863641017,3.85,6.022,7.606
12.0,9.0,4.5,16.0,-22.605986504332385,-14.36626928976311,-9.6639483424014,3.778,5.962,7.6
12.0,9.0,4.5,16.5,-19.83626086196391,-15.35337638097806,-8.92286033564822,3.79,5.98,7.612
12.0,9.0,4.5,17.0,-17.553658773572028,-16.62107232522303,-8.472184970017807,3.802,5.98,7.612
12.0,9.0,4.5,17.5,-15.782631827551445,-18.322938018939045,-8.020729906936822,3.808,5.98,7.612
12.0,9.0,4.5,18.0,-14.269070967006828,-20.06134901046631,-7.473652777973708,3.814,5.998,7.618
12.0,9.0,4.5,18.5,-13.280718182079871,-22.87893797660321,-7.10921139870657,3.826,5.998,7.624
12.0,9.0,5.0,16.0,-18.14627960132446,-12.41470377483554,-8.085701925705566,3.73,5.812,7.54
12.0,9.0,5.0,16.5,-16.195450546922377,-13.29414726380447,-7.56147809934693,3.742,5.824,7.546
12.0,9.0,5.0,17.0,-14.702232175583507,-14.232067818630815,-7.111065888548977,3.754,5.836,7.552
12.0,9.0,5.0,17.5,-13.41267271721829,-15.352730960226982,-6.715651808073408,3.76,5.836,7.552
12.0,9.0,5.0,18.0,-12.313352617280485,-16.64475868876511,-6.333682050655804,3.766,5.848,7.558
12.0,9.0,5.0,18.5,-11.525141184698732,-18.06616179941658,-6.040927435076658,3.766,5.848,7.558
12.0,9.0,5.5,16.0,-14.851929317995058,-11.206013039635913,-6.471645439597783,3.676,5.644,7.474
12.0,9.0,5.5,16.5,-13.562944006566504,-11.92238841593974,-6.138433082031524,3.688,5.656000000000001,7.474
12.0,9.0,5.5,17.0,-12.36256411812873,-12.74339999943916,-5.7778629879745855,3.7,5.668,7.48
12.0,9.0,5.5,17.5,-11.521995047361438,-13.638961653636343,-5.392885894258056,3.706,5.68,7.486
12.0,9.0,5.5,18.0,-10.518409302889832,-14.689756072926931,-5.115442857892164,3.706,5.68,7.486
12.0,9.0,5.5,18.5,-10.030070483203172,-15.40601474870004,-4.86392097664706,3.7,5.668,7.468
12.0,9.0,6.0,16.0,-12.326786494935922,-10.482358175998526,-4.949716616989539,3.628,5.476,7.408
12.0,9.0,6.0,16.5,-11.297452544013264,-11.13347468283212,-4.657252211403552,3.64,5.488,7.414
12.0,9.0,6.0,17.0,-10.428862987769094,-11.844678350878947,-4.396809417698449,3.646,5.5,7.414
12.0,9.0,6.0,17.5,-9.628519468958451,-12.648343785365071,-4.15226222488817,3.652,5.506,7.42
12.0,9.0,6.0,18.0,-8.949096680647163,-13.545477922234676,-3.922310770369753,3.658,5.5120000000000005,7.42
12.0,9.0,6.0,18.5,-8.370773225397608,-14.572664610214762,-3.726804527591649,3.658,5.518000000000001,7.42
12.0,9.5,3.0,16.0,-38.361826609392615,-25.273058326891743,-11.696863503788965,3.778,6.172000000000001,7.546
12.0,9.5,3.0,16.5,-35.57492602706736,-38.90472091805604,-12.554965599283223,3.79,6.16,7.546
12.0,9.5,3.0,17.0,-23.796721956256786,-31.9454271625736,-10.206437898747694,3.808,6.172000000000001,7.552
12.0,9.5,3.0,17.5,-22.668871830255107,-35.42762036170893,-9.4747145162762,3.82,6.208,7.57
12.0,9.5,3.0,18.0,-19.322684975964805,-29.961106940966857,-8.556453645036283,3.826,6.208,7.552
12.0,9.5,3.0,18.5,-18.015723783177425,-23.836585702941896,-8.355960071690381,3.838,6.220000000000001,7.576
12.0,9.5,3.5,16.0,-27.732137792195864,-17.25915123955638,-10.043531851970332,3.73,6.052,7.474
12.0,9.5,3.5,16.5,-1.9286549331065747e-15,-9.643274665532873e-16,-1.9286549331065747e-15,2.722,2.734,2.752
12.0,9.5,3.5,17.0,-21.542389090635726,-21.688874249384853,-9.200558812709447,3.772,6.082000000000001,7.504
12.0,9.5,3.5,17.5,-18.051714482113944,-22.378290365066874,-8.23206974714634,3.772,6.064,7.498
12.0,9.5,3.5,18.0,-16.304440448916115,-25.774953310698702,-7.80937225721151,3.76,6.0760000000000005,7.492
12.0,9.5,3.5,18.5,-15.036266459821167,-31.98988106885412,-7.487601169344629,3.778,6.082000000000001,7.504
12.0,9.5,4.0,16.0,-20.62525558842267,-14.721905740584534,-8.953992918732089,3.706,5.962,7.48
12.0,9.5,4.0,16.5,-18.303631721933304,-15.70395678229239,-8.361816033797819,3.718,5.98,7.474
12.0,9.5,4.0,17.0,-16.38792224644577,-16.790397865330053,-7.892944406643677,3.724,5.974,7.468
12.0,9.5,4.0,17.5,-14.76642009661236,-18.22917122579776,-7.402658668188041,3.724,5.968,7.468
12.0,9.5,4.0,18.0,-13.783900998736682,-19.73699812139494,-7.109364836553577,3.73,5.968,7.462
12.0,9.5,4.0,18.5,-12.774398425891729,-21.83658496047021,-6.894724840937295,3.73,5.968,7.456
12.0,9.5,4.5,16.0,-16.665451099057584,-12.768577969772938,-7.775394511796801,3.664,5.8420000000000005,7.438
12.0,9.5,4.5,16.5,-15.174019802595756,-13.583309310476055,-7.29437411617759,3.67,5.848,7.444
12.0,9.5,4.5,17.0,-13.811414048064306,-14.634362183904804,-6.930048352266391,3.682,5.859999999999999,7.444
12.0,9.5,4.5,17.5,-12.778873730233872,-15.939697498810112,-6.592243398268591,3.688,5.866,7.45
12.0,9.5,4.5,18.0,-11.845924884993735,-17.197205267413263,-6.227367864445625,3.694,5.872,7.45
12.0,9.5,4.5,18.5,-11.028674945238627,-18.938438204406477,-5.876086841626123,3.7,5.878,7.456
12.0,9.5,5.0,16.0,-14.338571009389366,-11.347221728680408,-6.598807600047497,3.61,5.698,7.384
12.0,9.5,5.0,16.5,-13.017894884607678,-12.12792037949635,-6.214216808585028,3.622,5.71,7.396
12.0,9.5,5.0,17.0,-11.897684709859533,-12.963195557236762,-5.943029129396815,3.634,5.722,7.39
12.0,9.5,5.0,17.5,-11.03293769287234,-13.914858528608304,-5.660809830870125,3.634,5.728,7.39
12.0,9.5,5.0,18.0,-10.253236759840096,-14.277474113426116,-5.215135859470927,3.622,5.71,7.366
12.0,9.5,5.0,18.5,-9.73770077674883,-15.010881238085558,-4.771718144856026,3.61,5.704000000000001,7.348
12.0,9.5,5.5,16.0,-12.157538260815777,-10.523014529247662,-5.389276956137508,3.5620000000000003,5.554,7.33
12.0,9.5,5.5,16.5,-11.075693062072473,-11.200979371843667,-5.079652927796873,3.574,5.566000000000001,7.33
12.0,9.5,5.5,17.0,-10.269212474165537,-11.910820629735436,-4.835177371126924,3.58,5.572,7.336
12.0,9.5,5.5,17.5,-9.54899425398355,-12.71767734394729,-4.502314863880338,3.5860000000000003,5.584,7.342
12.0,9.5,5.5,18.0,-8.875947164540763,-13.656346117302396,-4.282111625228529,3.592,5.59,7.336
12.0,9.5,5.5,18.5,-8.302790378993757,-14.63850012155275,-4.076107155700597,3.592,5.596,7.336
